name,type,start_time,duration,"data"
"mainboardGrey","data",0.0000135,0.0009895,0xFE
"mainboardBlue","data",0.000309,0.0009895,0x00
"mainboardBlue","data",0.001359,0.0009895,0xFF
"mainboardBlue","data",0.002408875,0.0009895,0x00
"mainboardBlue","data",0.0034715,0.0009895,0x00
"mainboardBlue","data",0.004521375,0.0009895,0x00
"mainboardBlue","data",0.005571375,0.0009895,0x00
"mainboardBlue","data",0.006621125,0.0009895,0x00
"mainboardBlue","data",0.007671125,0.0009895,0x00
"mainboardBlue","data",0.008721125,0.0009895,0x00
"mainboardBlue","data",0.009771125,0.0009895,0x5F
"mainboardBlue","data",0.010821,0.0009895,0x61
"mainboardGrey","data",0.04394675,0.0009895,0xAA
"mainboardGrey","data",0.04499725,0.0009895,0x30
"mainboardGrey","data",0.046047625,0.0009895,0x0A
"mainboardGrey","data",0.047098,0.0009895,0x01
"mainboardGrey","data",0.048148625,0.0009895,0xFF
"mainboardGrey","data",0.04919925,0.0009895,0x03
"mainboardGrey","data",0.050249625,0.0009895,0x00
"mainboardGrey","data",0.0513,0.0009895,0x50
"mainboardGrey","data",0.052350875,0.0009895,0x54
"mainboardGrey","data",0.05340125,0.0009895,0x1F
"mainboardBlue","data",0.07488075,0.0009895,0xAA
"mainboardBlue","data",0.07593075,0.0009895,0x30
"mainboardBlue","data",0.07698075,0.0009895,0x40
"mainboardBlue","data",0.07803075,0.0009895,0xC4
"mainboardBlue","data",0.079080625,0.0009895,0x09
"mainboardBlue","data",0.0801305,0.0009895,0x92
"mainboardBlue","data",0.081180375,0.0009895,0x09
"mainboardBlue","data",0.082230375,0.0009895,0x4C
"mainboardBlue","data",0.08328025,0.0009895,0x04
"mainboardBlue","data",0.084330125,0.0009895,0x8E
"mainboardBlue","data",0.085380125,0.0009895,0x03
"mainboardBlue","data",0.086430125,0.0009895,0x25
"mainboardBlue","data",0.087480125,0.0009895,0x00
"mainboardBlue","data",0.08853,0.0009895,0x00
"mainboardBlue","data",0.08957975,0.0009895,0x01
"mainboardBlue","data",0.090629625,0.0009895,0x01
"mainboardBlue","data",0.09167975,0.0009895,0xAC
"mainboardBlue","data",0.09272975,0.0009895,0x03
"mainboardBlue","data",0.093782125,0.0009895,0x00
"mainboardBlue","data",0.094832125,0.0009895,0x00
"mainboardBlue","data",0.095882125,0.0009895,0x00
"mainboardBlue","data",0.096932,0.0009895,0x00
"mainboardBlue","data",0.097981875,0.0009895,0x00
"mainboardBlue","data",0.099034125,0.0009895,0x00
"mainboardBlue","data",0.100084,0.0009895,0x00
"mainboardBlue","data",0.101133875,0.0009895,0x00
"mainboardBlue","data",0.10218375,0.0009895,0x00
"mainboardBlue","data",0.103235625,0.0009895,0x01
"mainboardBlue","data",0.10428575,0.0009895,0x00
"mainboardBlue","data",0.105335625,0.0009895,0x00
"mainboardBlue","data",0.10638575,0.0009895,0x00
"mainboardBlue","data",0.10743575,0.0009895,0x00
"mainboardBlue","data",0.10848575,0.0009895,0x00
"mainboardBlue","data",0.109535625,0.0009895,0x00
"mainboardBlue","data",0.110585625,0.0009895,0x08
"mainboardBlue","data",0.111635375,0.0009895,0x00
"mainboardBlue","data",0.112689375,0.0009895,0x1B
"mainboardBlue","data",0.1137395,0.0009895,0x72
"mainboardBlue","data",0.1147895,0.0009895,0xAF
"mainboardBlue","data",0.115839625,0.0009895,0xB3
"mainboardBlue","data",0.116889625,0.0009895,0x00
"mainboardBlue","data",0.1179395,0.0009895,0x01
"mainboardBlue","data",0.11899575,0.0009895,0x0A
"mainboardBlue","data",0.12004575,0.0009895,0xDF
"mainboardBlue","data",0.121095625,0.0009895,0x00
"mainboardBlue","data",0.12214575,0.0009895,0x00
"mainboardBlue","data",0.12319575,0.0009895,0x50
"mainboardBlue","data",0.12424575,0.0009895,0x00
"mainboardBlue","data",0.125295875,0.0009895,0x00
"mainboardBlue","data",0.126345875,0.0009895,0x00
"mainboardBlue","data",0.12739575,0.0009895,0x00
"mainboardBlue","data",0.12844575,0.0009895,0x00
"mainboardBlue","data",0.12949575,0.0009895,0x00
"mainboardBlue","data",0.130545625,0.0009895,0x00
"mainboardBlue","data",0.131597375,0.0009895,0x00
"mainboardBlue","data",0.132647375,0.0009895,0x00
"mainboardBlue","data",0.1336975,0.0009895,0x00
"mainboardBlue","data",0.134747375,0.0009895,0x00
"mainboardBlue","data",0.1357975,0.0009895,0x00
"mainboardBlue","data",0.136847375,0.0009895,0x00
"mainboardBlue","data",0.13789725,0.0009895,0x00
"mainboardBlue","data",0.138947375,0.0009895,0x00
"mainboardBlue","data",0.13999725,0.0009895,0x7C
"mainboardBlue","data",0.141051125,0.0009895,0xC3
"mainboardGrey","data",0.17437575,0.0009895,0xAA
"mainboardGrey","data",0.175426125,0.0009895,0x20
"mainboardGrey","data",0.176476875,0.0009895,0x24
"mainboardGrey","data",0.17752725,0.0009895,0x03
"mainboardGrey","data",0.178577625,0.0009895,0x4A
"mainboardGrey","data",0.179628,0.0009895,0x66
"mainboardGrey","data",0.180678375,0.0009895,0x00
"mainboardGrey","data",0.18172875,0.0009895,0x00
"mainboardGrey","data",0.182779125,0.0009895,0x00
"mainboardGrey","data",0.183829625,0.0009895,0x40
"mainboardGrey","data",0.18488,0.0009895,0x00
"mainboardGrey","data",0.185930375,0.0009895,0x00
"mainboardGrey","data",0.186980875,0.0009895,0x00
"mainboardGrey","data",0.188031375,0.0009895,0x00
"mainboardGrey","data",0.18908175,0.0009895,0x00
"mainboardGrey","data",0.190132125,0.0009895,0x00
"mainboardGrey","data",0.191182625,0.0009895,0x90
"mainboardGrey","data",0.192233625,0.0009895,0x00
"mainboardGrey","data",0.19328425,0.0009895,0xFF
"mainboardGrey","data",0.194334625,0.0009895,0xFF
"mainboardGrey","data",0.195384875,0.0009895,0x00
"mainboardGrey","data",0.19643525,0.0009895,0x00
"mainboardGrey","data",0.197486125,0.0009895,0x00
"mainboardGrey","data",0.19853675,0.0009895,0x00
"mainboardGrey","data",0.19958725,0.0009895,0x00
"mainboardGrey","data",0.20063775,0.0009895,0x00
"mainboardGrey","data",0.20168825,0.0009895,0x00
"mainboardGrey","data",0.20273875,0.0009895,0x00
"mainboardGrey","data",0.203789125,0.0009895,0x00
"mainboardGrey","data",0.204839625,0.0009895,0x00
"mainboardGrey","data",0.205890625,0.0009895,0x00
"mainboardGrey","data",0.20694125,0.0009895,0x00
"mainboardGrey","data",0.207991875,0.0009895,0x00
"mainboardGrey","data",0.20904325,0.0009895,0x00
"mainboardGrey","data",0.210093625,0.0009895,0xB9
"mainboardGrey","data",0.21114475,0.0009895,0x82
"mainboardBlue","data",0.232484,0.0009895,0xAA
"mainboardBlue","data",0.23353325,0.0009895,0x20
"mainboardBlue","data",0.23458325,0.0009895,0x1D
"mainboardBlue","data",0.23563325,0.0009895,0x03
"mainboardBlue","data",0.236683125,0.0009895,0x00
"mainboardBlue","data",0.237733125,0.0009895,0x00
"mainboardBlue","data",0.238783,0.0009895,0x00
"mainboardBlue","data",0.239833125,0.0009895,0x00
"mainboardBlue","data",0.240883,0.0009895,0x00
"mainboardBlue","data",0.241933,0.0009895,0x00
"mainboardBlue","data",0.242982875,0.0009895,0x00
"mainboardBlue","data",0.244032875,0.0009895,0x00
"mainboardBlue","data",0.24508275,0.0009895,0x00
"mainboardBlue","data",0.24613275,0.0009895,0x01
"mainboardBlue","data",0.247182875,0.0009895,0x00
"mainboardBlue","data",0.248235,0.0009895,0x00
"mainboardBlue","data",0.24928475,0.0009895,0x00
"mainboardBlue","data",0.25033475,0.0009895,0x00
"mainboardBlue","data",0.251384625,0.0009895,0x00
"mainboardBlue","data",0.2524345,0.0009895,0xFF
"mainboardBlue","data",0.253493625,0.0009895,0x00
"mainboardBlue","data",0.2545435,0.0009895,0x00
"mainboardBlue","data",0.255593375,0.0009895,0x00
"mainboardBlue","data",0.256643375,0.0009895,0x00
"mainboardBlue","data",0.257693375,0.0009895,0x00
"mainboardBlue","data",0.2587435,0.0009895,0x00
"mainboardBlue","data",0.2597935,0.0009895,0x00
"mainboardBlue","data",0.260843375,0.0009895,0x5F
"mainboardBlue","data",0.261893375,0.0009895,0x61
"bidirectionalExtensionBoard","data",0.26793175,0.00395825,0xAA
"bidirectionalExtensionBoard","data",0.27209875,0.00395825,0xBC
"bidirectionalExtensionBoard","data",0.276266125,0.00395825,0x22
"bidirectionalExtensionBoard","data",0.280433,0.00395825,0xAC
"bidirectionalExtensionBoard","data",0.284600125,0.00395825,0x00
"bidirectionalExtensionBoard","data",0.2887675,0.00395825,0x00
"bidirectionalExtensionBoard","data",0.292934375,0.00395825,0x00
"mainboardGrey","data",0.293933375,0.0009895,0xAA
"mainboardGrey","data",0.29498375,0.0009895,0x31
"mainboardGrey","data",0.296034125,0.0009895,0x20
"mainboardGrey","data",0.2970845,0.0009895,0x00
"bidirectionalExtensionBoard","data",0.29710175,0.00395825,0x00
"mainboardGrey","data",0.298134875,0.0009895,0x00
"mainboardGrey","data",0.299185875,0.0009895,0x00
"mainboardGrey","data",0.300236875,0.0009895,0x00
"bidirectionalExtensionBoard","data",0.3012685,0.00395825,0x00
"mainboardGrey","data",0.301287375,0.0009895,0x00
"mainboardGrey","data",0.302337875,0.0009895,0x00
"mainboardGrey","data",0.303388375,0.0009895,0x00
"mainboardGrey","data",0.30443875,0.0009895,0x00
"bidirectionalExtensionBoard","data",0.30543575,0.00395825,0x03
"mainboardGrey","data",0.30548925,0.0009895,0x00
"mainboardGrey","data",0.306539625,0.0009895,0x00
"mainboardGrey","data",0.307590125,0.0009895,0x00
"mainboardGrey","data",0.3086405,0.0009895,0x00
"bidirectionalExtensionBoard","data",0.309603375,0.00395825,0x03
"mainboardGrey","data",0.309691125,0.0009895,0x00
"mainboardGrey","data",0.3107415,0.0009895,0x00
"mainboardGrey","data",0.311792125,0.0009895,0x00
"mainboardGrey","data",0.31284275,0.0009895,0x00
"bidirectionalExtensionBoard","data",0.313770875,0.00395825,0x93
"mainboardGrey","data",0.3138935,0.0009895,0x00
"mainboardGrey","data",0.314944,0.0009895,0x00
"mainboardGrey","data",0.3159945,0.0009895,0x00
"mainboardGrey","data",0.317045625,0.0009895,0x00
"bidirectionalExtensionBoard","data",0.317938125,0.00395825,0x00
"mainboardGrey","data",0.31809625,0.0009895,0x00
"mainboardGrey","data",0.31914675,0.0009895,0x00
"mainboardGrey","data",0.320197375,0.0009895,0x00
"mainboardGrey","data",0.321248,0.0009895,0x00
"bidirectionalExtensionBoard","data",0.322105375,0.00395825,0x80
"mainboardGrey","data",0.3222985,0.0009895,0x00
"mainboardGrey","data",0.323349,0.0009895,0x00
"mainboardGrey","data",0.324399625,0.0009895,0x00
"mainboardGrey","data",0.325450625,0.0009895,0x4B
"bidirectionalExtensionBoard","data",0.32628275,0.00395825,0x84
"mainboardGrey","data",0.326501125,0.0009895,0x64
"bidirectionalExtensionBoard","data",0.330453125,0.00395825,0x00
"bidirectionalExtensionBoard","data",0.334620125,0.00395825,0x00
"bidirectionalExtensionBoard","data",0.338787375,0.00395825,0x00
"bidirectionalExtensionBoard","data",0.3429545,0.00395825,0x00
"bidirectionalExtensionBoard","data",0.347121875,0.00395825,0x00
"mainboardBlue","data",0.3481545,0.0009895,0xAA
"mainboardBlue","data",0.3492045,0.0009895,0x31
"mainboardBlue","data",0.350254625,0.0009895,0x40
"bidirectionalExtensionBoard","data",0.351289125,0.00395825,0x00
"mainboardBlue","data",0.351304,0.0009895,0x00
"mainboardBlue","data",0.352353375,0.0009895,0x4A
"mainboardBlue","data",0.35340325,0.0009895,0x26
"mainboardBlue","data",0.354453375,0.0009895,0x1B
"bidirectionalExtensionBoard","data",0.355456375,0.00395825,0x00
"mainboardBlue","data",0.3555035,0.0009895,0x00
"mainboardBlue","data",0.356553375,0.0009895,0x1B
"mainboardBlue","data",0.35760325,0.0009895,0x00
"mainboardBlue","data",0.358653375,0.0009895,0x00
"bidirectionalExtensionBoard","data",0.359623375,0.00395825,0x00
"mainboardBlue","data",0.359703375,0.0009895,0x00
"mainboardBlue","data",0.36075325,0.0009895,0x00
"mainboardBlue","data",0.361806375,0.0009895,0x33
"mainboardBlue","data",0.362856375,0.0009895,0x07
"bidirectionalExtensionBoard","data",0.36379025,0.00395825,0x00
"mainboardBlue","data",0.363906375,0.0009895,0x00
"mainboardBlue","data",0.36495625,0.0009895,0xB7
"mainboardBlue","data",0.36600625,0.0009895,0x88
"mainboardBlue","data",0.367056125,0.0009895,0x33
"bidirectionalExtensionBoard","data",0.367957125,0.00395825,0x00
"mainboardBlue","data",0.368106,0.0009895,0xB1
"mainboardBlue","data",0.369156,0.0009895,0x1E
"mainboardBlue","data",0.370205875,0.0009895,0x00
"mainboardBlue","data",0.371265,0.0009895,0x11
"bidirectionalExtensionBoard","data",0.37212425,0.00395825,0x00
"mainboardBlue","data",0.372314875,0.0009895,0x16
"mainboardBlue","data",0.373364875,0.0009895,0x00
"mainboardBlue","data",0.374414875,0.0009895,0x00
"mainboardBlue","data",0.375464875,0.0009895,0x00
"bidirectionalExtensionBoard","data",0.37629125,0.00395825,0x00
"mainboardBlue","data",0.376514875,0.0009895,0x00
"mainboardBlue","data",0.377564875,0.0009895,0x00
"mainboardBlue","data",0.378614875,0.0009895,0x00
"mainboardBlue","data",0.379665,0.0009895,0x00
"bidirectionalExtensionBoard","data",0.3804585,0.00395825,0x00
"mainboardBlue","data",0.380714625,0.0009895,0x00
"mainboardBlue","data",0.3817645,0.0009895,0x00
"mainboardBlue","data",0.3828145,0.0009895,0x00
"mainboardBlue","data",0.383864375,0.0009895,0xFF
"bidirectionalExtensionBoard","data",0.3846255,0.00395825,0x00
"mainboardBlue","data",0.384914375,0.0009895,0x03
"mainboardBlue","data",0.38596425,0.0009895,0x00
"mainboardBlue","data",0.387014125,0.0009895,0x00
"mainboardBlue","data",0.38806425,0.0009895,0x00
"bidirectionalExtensionBoard","data",0.388792625,0.00395825,0x00
"mainboardBlue","data",0.38911425,0.0009895,0x02
"mainboardBlue","data",0.390167375,0.0009895,0x00
"mainboardBlue","data",0.391226375,0.0009895,0x64
"mainboardBlue","data",0.39227625,0.0009895,0x00
"bidirectionalExtensionBoard","data",0.39295975,0.00395825,0x00
"mainboardBlue","data",0.393326125,0.0009895,0x64
"mainboardBlue","data",0.394376125,0.0009895,0x00
"mainboardBlue","data",0.395426125,0.0009895,0x00
"mainboardBlue","data",0.396476375,0.0009895,0x64
"bidirectionalExtensionBoard","data",0.3971265,0.00395825,0x00
"mainboardBlue","data",0.39752625,0.0009895,0x00
"mainboardBlue","data",0.39857625,0.0009895,0xF0
"mainboardBlue","data",0.39962625,0.0009895,0x00
"mainboardBlue","data",0.40067625,0.0009895,0x00
"bidirectionalExtensionBoard","data",0.4012935,0.00395825,0x00
"mainboardBlue","data",0.40172625,0.0009895,0x00
"mainboardBlue","data",0.402776125,0.0009895,0x00
"mainboardBlue","data",0.403825875,0.0009895,0x00
"mainboardBlue","data",0.40487575,0.0009895,0x00
"bidirectionalExtensionBoard","data",0.4054605,0.00395825,0x17
"mainboardBlue","data",0.40592575,0.0009895,0x00
"mainboardBlue","data",0.40697575,0.0009895,0x00
"mainboardBlue","data",0.408025875,0.0009895,0x00
"mainboardBlue","data",0.4090755,0.0009895,0x00
"bidirectionalExtensionBoard","data",0.40962775,0.00395825,0x89
"mainboardBlue","data",0.410125375,0.0009895,0x00
"mainboardBlue","data",0.41118775,0.0009895,0x00
"mainboardBlue","data",0.412237625,0.0009895,0x00
"mainboardBlue","data",0.4132905,0.0009895,0x17
"bidirectionalExtensionBoard","data",0.413794875,0.00395825,0xC2
"mainboardBlue","data",0.414340625,0.0009895,0x10
"bidirectionalExtensionBoard","data",0.4179715,0.00395825,0x00
"bidirectionalExtensionBoard","data",0.422140625,0.00395825,0xCD
"mainboardGrey","data",0.4541305,0.0009895,0xAA
"mainboardGrey","data",0.455181125,0.0009895,0x20
"mainboardGrey","data",0.456231625,0.0009895,0x24
"mainboardGrey","data",0.4572825,0.0009895,0x03
"mainboardGrey","data",0.458333125,0.0009895,0x4A
"mainboardGrey","data",0.459383625,0.0009895,0x66
"mainboardGrey","data",0.460434125,0.0009895,0x00
"mainboardGrey","data",0.461484625,0.0009895,0x00
"mainboardGrey","data",0.462535125,0.0009895,0x00
"mainboardGrey","data",0.46358625,0.0009895,0x40
"mainboardGrey","data",0.46463675,0.0009895,0x00
"mainboardGrey","data",0.465687125,0.0009895,0x00
"bidirectionalExtensionBoard","data",0.46575625,0.00395825,0x55
"mainboardGrey","data",0.466737375,0.0009895,0x00
"mainboardGrey","data",0.467787875,0.0009895,0x00
"mainboardGrey","data",0.4688385,0.0009895,0x00
"mainboardGrey","data",0.469888875,0.0009895,0x00
"bidirectionalExtensionBoard","data",0.469928,0.00395825,0xBC
"mainboardGrey","data",0.470939375,0.0009895,0x90
"mainboardGrey","data",0.47198975,0.0009895,0x00
"mainboardGrey","data",0.47304025,0.0009895,0xFF
"mainboardGrey","data",0.474090875,0.0009895,0xFF
"bidirectionalExtensionBoard","data",0.474111875,0.00395825,0x28
"mainboardGrey","data",0.4751415,0.0009895,0x00
"mainboardGrey","data",0.476191875,0.0009895,0x00
"mainboardGrey","data",0.47724225,0.0009895,0x00
"bidirectionalExtensionBoard","data",0.47828375,0.00395825,0xAC
"mainboardGrey","data",0.47829975,0.0009895,0x00
"mainboardGrey","data",0.47935025,0.0009895,0x00
"mainboardGrey","data",0.480400625,0.0009895,0x00
"mainboardGrey","data",0.481451625,0.0009895,0x00
"bidirectionalExtensionBoard","data",0.482455875,0.00395825,0x00
"mainboardGrey","data",0.48250275,0.0009895,0x00
"mainboardGrey","data",0.483553125,0.0009895,0x00
"mainboardGrey","data",0.484603625,0.0009895,0x00
"mainboardGrey","data",0.485654125,0.0009895,0x00
"bidirectionalExtensionBoard","data",0.486627625,0.00395825,0x00
"mainboardGrey","data",0.4867045,0.0009895,0x00
"mainboardGrey","data",0.487754875,0.0009895,0x00
"mainboardGrey","data",0.48880525,0.0009895,0x00
"mainboardGrey","data",0.489855625,0.0009895,0xB9
"bidirectionalExtensionBoard","data",0.49079925,0.00395825,0x00
"mainboardGrey","data",0.490906125,0.0009895,0x82
"bidirectionalExtensionBoard","data",0.494971125,0.00395825,0x00
"bidirectionalExtensionBoard","data",0.49914275,0.00395825,0x00
"bidirectionalExtensionBoard","data",0.5033145,0.00395825,0x03
"bidirectionalExtensionBoard","data",0.50748625,0.00395825,0x03
"bidirectionalExtensionBoard","data",0.511658,0.00395825,0x93
"mainboardBlue","data",0.511821125,0.0009895,0xAA
"mainboardBlue","data",0.512870875,0.0009895,0x20
"mainboardBlue","data",0.51392075,0.0009895,0x1D
"mainboardBlue","data",0.5149845,0.0009895,0x03
"bidirectionalExtensionBoard","data",0.51582975,0.00395825,0x00
"mainboardBlue","data",0.516034625,0.0009895,0x00
"mainboardBlue","data",0.5170845,0.0009895,0x00
"mainboardBlue","data",0.5181345,0.0009895,0x00
"mainboardBlue","data",0.5191845,0.0009895,0x00
"bidirectionalExtensionBoard","data",0.520001875,0.00395825,0x00
"mainboardBlue","data",0.520234625,0.0009895,0x00
"mainboardBlue","data",0.52128475,0.0009895,0x00
"mainboardBlue","data",0.522334625,0.0009895,0x00
"mainboardBlue","data",0.523384625,0.0009895,0x00
"bidirectionalExtensionBoard","data",0.524174,0.00395825,0x84
"mainboardBlue","data",0.524434125,0.0009895,0x00
"mainboardBlue","data",0.525484,0.0009895,0x01
"mainboardBlue","data",0.526533875,0.0009895,0x00
"mainboardBlue","data",0.527584,0.0009895,0x00
"bidirectionalExtensionBoard","data",0.528346,0.00395825,0x00
"mainboardBlue","data",0.528634125,0.0009895,0x00
"mainboardBlue","data",0.529684125,0.0009895,0x00
"mainboardBlue","data",0.530734,0.0009895,0x00
"mainboardBlue","data",0.531784,0.0009895,0xFF
"bidirectionalExtensionBoard","data",0.53251775,0.00395825,0x00
"mainboardBlue","data",0.532834,0.0009895,0x00
"mainboardBlue","data",0.533887125,0.0009895,0x00
"mainboardBlue","data",0.53494625,0.0009895,0x00
"mainboardBlue","data",0.535996125,0.0009895,0x00
"bidirectionalExtensionBoard","data",0.536689625,0.00395825,0x00
"mainboardBlue","data",0.53704625,0.0009895,0x00
"mainboardBlue","data",0.538096375,0.0009895,0x00
"mainboardBlue","data",0.539146375,0.0009895,0x00
"mainboardBlue","data",0.540196375,0.0009895,0x5F
"bidirectionalExtensionBoard","data",0.540861375,0.00395825,0x00
"mainboardBlue","data",0.54124625,0.0009895,0x61
"bidirectionalExtensionBoard","data",0.545039,0.00395825,0x00
"bidirectionalExtensionBoard","data",0.549210875,0.00395825,0x10
"bidirectionalExtensionBoard","data",0.553382625,0.00395825,0x30
"bidirectionalExtensionBoard","data",0.557554125,0.00395825,0x05
"bidirectionalExtensionBoard","data",0.56172575,0.00395825,0x00
"bidirectionalExtensionBoard","data",0.565897375,0.00395825,0x02
"bidirectionalExtensionBoard","data",0.570068875,0.00395825,0x30
"mainboardGrey","data",0.57377375,0.0009895,0xAA
"bidirectionalExtensionBoard","data",0.574240875,0.00395825,0x0E
"mainboardGrey","data",0.574824875,0.0009895,0x30
"mainboardGrey","data",0.575875375,0.0009895,0x0A
"mainboardGrey","data",0.576925875,0.0009895,0x01
"mainboardGrey","data",0.577976875,0.0009895,0xFF
"bidirectionalExtensionBoard","data",0.578412875,0.00395825,0x00
"mainboardGrey","data",0.57903225,0.0009895,0x03
"mainboardGrey","data",0.580082625,0.0009895,0x00
