name,type,start_time,duration,"data"
"bidirectionalExtensionBoard","data",0.00104,0.00395825,0x00
"bidirectionalExtensionBoard","data",0.0052115,0.00395825,0x08
"bidirectionalExtensionBoard","data",0.00938325,0.00395825,0x61
"bidirectionalExtensionBoard","data",0.01355525,0.00395825,0x1E
"bidirectionalExtensionBoard","data",0.017731,0.00395825,0x72
"bidirectionalExtensionBoard","data",0.02190275,0.00395825,0xAD
"bidirectionalExtensionBoard","data",0.02607475,0.00395825,0xB3
"bidirectionalExtensionBoard","data",0.0302465,0.00395825,0x00
"bidirectionalExtensionBoard","data",0.034422,0.00395825,0x35
"bidirectionalExtensionBoard","data",0.038594,0.00395825,0x00
"bidirectionalExtensionBoard","data",0.04276575,0.00395825,0x00
"bidirectionalExtensionBoard","data",0.0469375,0.00395825,0x00
"bidirectionalExtensionBoard","data",0.05110875,0.00395825,0x00
"bidirectionalExtensionBoard","data",0.05528075,0.00395825,0x00
"bidirectionalExtensionBoard","data",0.05945225,0.00395825,0x00
"bidirectionalExtensionBoard","data",0.06362325,0.00395825,0x00
"bidirectionalExtensionBoard","data",0.06779475,0.00395825,0xB8
"bidirectionalExtensionBoard","data",0.071966,0.00395825,0x00
"bidirectionalExtensionBoard","data",0.0761375,0.00395825,0xEF
"bidirectionalExtensionBoard","data",0.8232725,0.00395825,0xAA
"bidirectionalExtensionBoard","data",0.82743925,0.00395825,0xBC
"bidirectionalExtensionBoard","data",0.8316055,0.00395825,0x22
"bidirectionalExtensionBoard","data",0.8357725,0.00395825,0xAC
"bidirectionalExtensionBoard","data",0.83993875,0.00395825,0x00
"bidirectionalExtensionBoard","data",0.84410575,0.00395825,0x00
"bidirectionalExtensionBoard","data",0.84827225,0.00395825,0x00
"bidirectionalExtensionBoard","data",0.8524385,0.00395825,0x00
"bidirectionalExtensionBoard","data",0.8566045,0.00395825,0x00
"bidirectionalExtensionBoard","data",0.86077125,0.00395825,0x03
"bidirectionalExtensionBoard","data",0.86493775,0.00395825,0x03
"bidirectionalExtensionBoard","data",0.86910375,0.00395825,0x41
"bidirectionalExtensionBoard","data",0.8732705,0.00395825,0x81
"bidirectionalExtensionBoard","data",0.87743675,0.00395825,0x00
"bidirectionalExtensionBoard","data",0.88160275,0.00395825,0xFF
"bidirectionalExtensionBoard","data",0.885769,0.00395825,0x00
"bidirectionalExtensionBoard","data",0.889935,0.00395825,0x00
"bidirectionalExtensionBoard","data",0.894101,0.00395825,0x00
"bidirectionalExtensionBoard","data",0.89826725,0.00395825,0x00
"bidirectionalExtensionBoard","data",0.902443,0.00395825,0x00
"bidirectionalExtensionBoard","data",0.906611,0.00395825,0x00
"bidirectionalExtensionBoard","data",0.91077725,0.00395825,0x00
"bidirectionalExtensionBoard","data",0.9149435,0.00395825,0x00
"bidirectionalExtensionBoard","data",0.91910975,0.00395825,0x00
"bidirectionalExtensionBoard","data",0.92327625,0.00395825,0x00
"bidirectionalExtensionBoard","data",0.9274425,0.00395825,0x00
"bidirectionalExtensionBoard","data",0.93160875,0.00395825,0x00
"bidirectionalExtensionBoard","data",0.93577575,0.00395825,0x00
"bidirectionalExtensionBoard","data",0.93994225,0.00395825,0x00
"bidirectionalExtensionBoard","data",0.9441085,0.00395825,0x00
"bidirectionalExtensionBoard","data",0.94827525,0.00395825,0x00
"bidirectionalExtensionBoard","data",0.95244175,0.00395825,0x00
"bidirectionalExtensionBoard","data",0.95660825,0.00395825,0x00
"bidirectionalExtensionBoard","data",0.96077475,0.00395825,0xF3
"bidirectionalExtensionBoard","data",0.9649415,0.00395825,0xF0
"bidirectionalExtensionBoard","data",0.96910775,0.00395825,0xBC
"bidirectionalExtensionBoard","data",0.973274,0.00395825,0x00
"bidirectionalExtensionBoard","data",0.97744025,0.00395825,0x66
"bidirectionalExtensionBoard","data",1.021708,0.00395825,0x55
"bidirectionalExtensionBoard","data",1.02588,0.00395825,0xBC
"bidirectionalExtensionBoard","data",1.0300515,0.00395825,0x28
"bidirectionalExtensionBoard","data",1.034223,0.00395825,0xAC
"bidirectionalExtensionBoard","data",1.03839425,0.00395825,0x00
"bidirectionalExtensionBoard","data",1.04256575,0.00395825,0x00
"bidirectionalExtensionBoard","data",1.0467375,0.00395825,0x00
"bidirectionalExtensionBoard","data",1.05090875,0.00395825,0x00
"bidirectionalExtensionBoard","data",1.0550805,0.00395825,0x00
"bidirectionalExtensionBoard","data",1.05925225,0.00395825,0x03
"bidirectionalExtensionBoard","data",1.06342375,0.00395825,0x03
"bidirectionalExtensionBoard","data",1.0675955,0.00395825,0xC0
"bidirectionalExtensionBoard","data",1.07176675,0.00395825,0x01
"bidirectionalExtensionBoard","data",1.0759385,0.00395825,0x87
"bidirectionalExtensionBoard","data",1.08011025,0.00395825,0x66
"bidirectionalExtensionBoard","data",1.08428225,0.00395825,0x7F
"bidirectionalExtensionBoard","data",1.088454,0.00395825,0x7F
"bidirectionalExtensionBoard","data",1.092626,0.00395825,0x00
"bidirectionalExtensionBoard","data",1.09679775,0.00395825,0x00
"bidirectionalExtensionBoard","data",1.10096925,0.00395825,0x80
"bidirectionalExtensionBoard","data",1.10514075,0.00395825,0x00
"bidirectionalExtensionBoard","data",1.1093125,0.00395825,0x00
"bidirectionalExtensionBoard","data",1.11348425,0.00395825,0x60
"bidirectionalExtensionBoard","data",1.11765625,0.00395825,0x3C
"bidirectionalExtensionBoard","data",1.1218275,0.00395825,0x0B
"bidirectionalExtensionBoard","data",1.125999,0.00395825,0x00
"bidirectionalExtensionBoard","data",1.130177,0.00395825,0x30
"bidirectionalExtensionBoard","data",1.1343485,0.00395825,0x00
"bidirectionalExtensionBoard","data",1.13852025,0.00395825,0x00
"bidirectionalExtensionBoard","data",1.142692,0.00395825,0x00
"bidirectionalExtensionBoard","data",1.14686425,0.00395825,0x00
"bidirectionalExtensionBoard","data",1.15103625,0.00395825,0x00
"bidirectionalExtensionBoard","data",1.1552075,0.00395825,0x00
"bidirectionalExtensionBoard","data",1.15937925,0.00395825,0x00
"bidirectionalExtensionBoard","data",1.16355125,0.00395825,0x01
"bidirectionalExtensionBoard","data",1.167723,0.00395825,0x00
"bidirectionalExtensionBoard","data",1.171895,0.00395825,0x00
"bidirectionalExtensionBoard","data",1.1760665,0.00395825,0x00
"bidirectionalExtensionBoard","data",1.180238,0.00395825,0x00
"bidirectionalExtensionBoard","data",1.18440975,0.00395825,0x00
"bidirectionalExtensionBoard","data",1.18858175,0.00395825,0x00
"bidirectionalExtensionBoard","data",1.19275325,0.00395825,0x22
"bidirectionalExtensionBoard","data",1.1969255,0.00395825,0x00
"bidirectionalExtensionBoard","data",1.2011015,0.00395825,0xEF
"bidirectionalExtensionBoard","data",1.9223845,0.00395825,0xAA
"bidirectionalExtensionBoard","data",1.92655075,0.00395825,0xBC
"bidirectionalExtensionBoard","data",1.9307175,0.00395825,0x22
"bidirectionalExtensionBoard","data",1.93488425,0.00395825,0xAC
"bidirectionalExtensionBoard","data",1.93905075,0.00395825,0x00
"bidirectionalExtensionBoard","data",1.9432175,0.00395825,0x00
"bidirectionalExtensionBoard","data",1.947384,0.00395825,0x00
"bidirectionalExtensionBoard","data",1.95155075,0.00395825,0x00
"bidirectionalExtensionBoard","data",1.95571725,0.00395825,0x00
"bidirectionalExtensionBoard","data",1.95988425,0.00395825,0x03
"bidirectionalExtensionBoard","data",1.9640505,0.00395825,0x03
"bidirectionalExtensionBoard","data",1.96821725,0.00395825,0x93
"bidirectionalExtensionBoard","data",1.972384,0.00395825,0x00
"bidirectionalExtensionBoard","data",1.9765505,0.00395825,0x80
"bidirectionalExtensionBoard","data",1.98071725,0.00395825,0x84
"bidirectionalExtensionBoard","data",1.98488375,0.00395825,0x00
"bidirectionalExtensionBoard","data",1.98905025,0.00395825,0x00
"bidirectionalExtensionBoard","data",1.99321725,0.00395825,0x00
"bidirectionalExtensionBoard","data",1.99738375,0.00395825,0x00
"bidirectionalExtensionBoard","data",2.00155075,0.00395825,0x00
"bidirectionalExtensionBoard","data",2.00573025,0.00395825,0x00
"bidirectionalExtensionBoard","data",2.0098965,0.00395825,0x00
"bidirectionalExtensionBoard","data",2.01406325,0.00395825,0x00
"bidirectionalExtensionBoard","data",2.01823025,0.00395825,0x00
"bidirectionalExtensionBoard","data",2.022397,0.00395825,0x00
"bidirectionalExtensionBoard","data",2.02656375,0.00395825,0x00
"bidirectionalExtensionBoard","data",2.03073,0.00395825,0x00
"bidirectionalExtensionBoard","data",2.0348965,0.00395825,0x00
"bidirectionalExtensionBoard","data",2.03906325,0.00395825,0x00
"bidirectionalExtensionBoard","data",2.04322975,0.00395825,0x00
"bidirectionalExtensionBoard","data",2.0473965,0.00395825,0x00
"bidirectionalExtensionBoard","data",2.0515635,0.00395825,0x00
"bidirectionalExtensionBoard","data",2.05573,0.00395825,0x00
"bidirectionalExtensionBoard","data",2.059897,0.00395825,0x78
"bidirectionalExtensionBoard","data",2.06406375,0.00395825,0xAD
"bidirectionalExtensionBoard","data",2.06823025,0.00395825,0x61
"bidirectionalExtensionBoard","data",2.07239675,0.00395825,0x00
"bidirectionalExtensionBoard","data",2.076563,0.00395825,0xA9
"bidirectionalExtensionBoard","data",2.119719,0.00395825,0x55
"bidirectionalExtensionBoard","data",2.12389025,0.00395825,0xBC
"bidirectionalExtensionBoard","data",2.1280615,0.00395825,0x28
"bidirectionalExtensionBoard","data",2.1322335,0.00395825,0xAC
"bidirectionalExtensionBoard","data",2.13640525,0.00395825,0x00
"bidirectionalExtensionBoard","data",2.14057725,0.00395825,0x00
"bidirectionalExtensionBoard","data",2.14474875,0.00395825,0x00
"bidirectionalExtensionBoard","data",2.14892425,0.00395825,0x00
"bidirectionalExtensionBoard","data",2.153096,0.00395825,0x00
"bidirectionalExtensionBoard","data",2.15726775,0.00395825,0x03
"bidirectionalExtensionBoard","data",2.1614395,0.00395825,0x03
"bidirectionalExtensionBoard","data",2.16561075,0.00395825,0x93
"bidirectionalExtensionBoard","data",2.1697825,0.00395825,0x00
"bidirectionalExtensionBoard","data",2.17395425,0.00395825,0x00
"bidirectionalExtensionBoard","data",2.178126,0.00395825,0x84
"bidirectionalExtensionBoard","data",2.182298,0.00395825,0x00
"bidirectionalExtensionBoard","data",2.18646975,0.00395825,0x00
"bidirectionalExtensionBoard","data",2.19064125,0.00395825,0x00
"bidirectionalExtensionBoard","data",2.19481475,0.00395825,0x00
"bidirectionalExtensionBoard","data",2.1989865,0.00395825,0x00
"bidirectionalExtensionBoard","data",2.2031585,0.00395825,0x10
"bidirectionalExtensionBoard","data",2.20733075,0.00395825,0x30
"bidirectionalExtensionBoard","data",2.211503,0.00395825,0x05
"bidirectionalExtensionBoard","data",2.21567525,0.00395825,0x00
"bidirectionalExtensionBoard","data",2.219847,0.00395825,0x02
"bidirectionalExtensionBoard","data",2.22401875,0.00395825,0x30
"bidirectionalExtensionBoard","data",2.2281905,0.00395825,0x0E
"bidirectionalExtensionBoard","data",2.23236225,0.00395825,0x00
"bidirectionalExtensionBoard","data",2.23653425,0.00395825,0xBC
"bidirectionalExtensionBoard","data",2.24070625,0.00395825,0xD6
"bidirectionalExtensionBoard","data",2.244878,0.00395825,0x98
"bidirectionalExtensionBoard","data",2.24904975,0.00395825,0x00
"bidirectionalExtensionBoard","data",2.2532255,0.00395825,0x00
"bidirectionalExtensionBoard","data",2.2573975,0.00395825,0x00
"bidirectionalExtensionBoard","data",2.261569,0.00395825,0x00
"bidirectionalExtensionBoard","data",2.26574075,0.00395825,0x80
"bidirectionalExtensionBoard","data",2.269912,0.00395825,0x80
"bidirectionalExtensionBoard","data",2.27408325,0.00395825,0x80
"bidirectionalExtensionBoard","data",2.2782545,0.00395825,0x80
"bidirectionalExtensionBoard","data",2.282426,0.00395825,0x00
"bidirectionalExtensionBoard","data",2.2865975,0.00395825,0x00
"bidirectionalExtensionBoard","data",2.2907695,0.00395825,0x60
"bidirectionalExtensionBoard","data",2.29494125,0.00395825,0x00
"bidirectionalExtensionBoard","data",2.2991125,0.00395825,0xEF
"bidirectionalExtensionBoard","data",3.0214685,0.00395825,0xAA
"bidirectionalExtensionBoard","data",3.0256345,0.00395825,0xBC
"bidirectionalExtensionBoard","data",3.0298005,0.00395825,0x22
"bidirectionalExtensionBoard","data",3.03396625,0.00395825,0xAC
"bidirectionalExtensionBoard","data",3.03813225,0.00395825,0x00
"bidirectionalExtensionBoard","data",3.04229825,0.00395825,0x00
"bidirectionalExtensionBoard","data",3.04646375,0.00395825,0x00
"bidirectionalExtensionBoard","data",3.0506295,0.00395825,0x00
"bidirectionalExtensionBoard","data",3.0547955,0.00395825,0x00
"bidirectionalExtensionBoard","data",3.05896125,0.00395825,0x03
"bidirectionalExtensionBoard","data",3.06312725,0.00395825,0x03
"bidirectionalExtensionBoard","data",3.067293,0.00395825,0x41
"bidirectionalExtensionBoard","data",3.07145925,0.00395825,0x81
"bidirectionalExtensionBoard","data",3.07562475,0.00395825,0x01
"bidirectionalExtensionBoard","data",3.079791,0.00395825,0x41
"bidirectionalExtensionBoard","data",3.0839565,0.00395825,0x00
"bidirectionalExtensionBoard","data",3.08812225,0.00395825,0x00
"bidirectionalExtensionBoard","data",3.09230025,0.00395825,0x00
"bidirectionalExtensionBoard","data",3.0964665,0.00395825,0x00
"bidirectionalExtensionBoard","data",3.10063225,0.00395825,0x00
"bidirectionalExtensionBoard","data",3.10479825,0.00395825,0x00
"bidirectionalExtensionBoard","data",3.10896425,0.00395825,0x00
"bidirectionalExtensionBoard","data",3.11313025,0.00395825,0x00
"bidirectionalExtensionBoard","data",3.11729625,0.00395825,0x00
"bidirectionalExtensionBoard","data",3.121463,0.00395825,0x00
"bidirectionalExtensionBoard","data",3.12562875,0.00395825,0x00
"bidirectionalExtensionBoard","data",3.12979475,0.00395825,0x00
"bidirectionalExtensionBoard","data",3.13396075,0.00395825,0x00
"bidirectionalExtensionBoard","data",3.13812675,0.00395825,0x00
"bidirectionalExtensionBoard","data",3.142293,0.00395825,0x00
"bidirectionalExtensionBoard","data",3.14645925,0.00395825,0x00
"bidirectionalExtensionBoard","data",3.15062525,0.00395825,0x00
"bidirectionalExtensionBoard","data",3.15479075,0.00395825,0x00
"bidirectionalExtensionBoard","data",3.15895675,0.00395825,0xFC
"bidirectionalExtensionBoard","data",3.16312275,0.00395825,0x19
"bidirectionalExtensionBoard","data",3.1672885,0.00395825,0x70
"bidirectionalExtensionBoard","data",3.1714545,0.00395825,0x00
"bidirectionalExtensionBoard","data",3.1756205,0.00395825,0x3D
"bidirectionalExtensionBoard","data",3.21959375,0.00395825,0x55
"bidirectionalExtensionBoard","data",3.22376525,0.00395825,0xBC
"bidirectionalExtensionBoard","data",3.2279365,0.00395825,0x22
"bidirectionalExtensionBoard","data",3.232108,0.00395825,0xAC
"bidirectionalExtensionBoard","data",3.23627925,0.00395825,0x00
"bidirectionalExtensionBoard","data",3.240455,0.00395825,0x00
"bidirectionalExtensionBoard","data",3.2446265,0.00395825,0x00
"bidirectionalExtensionBoard","data",3.24879825,0.00395825,0x00
"bidirectionalExtensionBoard","data",3.25296975,0.00395825,0x00
"bidirectionalExtensionBoard","data",3.257141,0.00395825,0x03
"bidirectionalExtensionBoard","data",3.2613125,0.00395825,0x03
"bidirectionalExtensionBoard","data",3.26548425,0.00395825,0xC1
"bidirectionalExtensionBoard","data",3.269662,0.00395825,0x21
"bidirectionalExtensionBoard","data",3.27383375,0.00395825,0x01
"bidirectionalExtensionBoard","data",3.27800525,0.00395825,0x41
"bidirectionalExtensionBoard","data",3.282177,0.00395825,0x35
"bidirectionalExtensionBoard","data",3.28634875,0.00395825,0x35
"bidirectionalExtensionBoard","data",3.29052025,0.00395825,0x00
"bidirectionalExtensionBoard","data",3.294692,0.00395825,0x04
"bidirectionalExtensionBoard","data",3.2988635,0.00395825,0xE4
"bidirectionalExtensionBoard","data",3.303035,0.00395825,0x03
"bidirectionalExtensionBoard","data",3.30720675,0.00395825,0x4C
"bidirectionalExtensionBoard","data",3.31137825,0.00395825,0x79
"bidirectionalExtensionBoard","data",3.31554975,0.00395825,0x38
"bidirectionalExtensionBoard","data",3.319721,0.00395825,0x3C
"bidirectionalExtensionBoard","data",3.3238925,0.00395825,0x38
"bidirectionalExtensionBoard","data",3.328064,0.00395825,0x00
"bidirectionalExtensionBoard","data",3.3322355,0.00395825,0x00
"bidirectionalExtensionBoard","data",3.33640725,0.00395825,0x00
"bidirectionalExtensionBoard","data",3.3405785,0.00395825,0x00
"bidirectionalExtensionBoard","data",3.3447505,0.00395825,0x00
"bidirectionalExtensionBoard","data",3.34892425,0.00395825,0x00
"bidirectionalExtensionBoard","data",3.353096,0.00395825,0x00
"bidirectionalExtensionBoard","data",3.35726775,0.00395825,0x00
"bidirectionalExtensionBoard","data",3.36143975,0.00395825,0x00
"bidirectionalExtensionBoard","data",3.36561175,0.00395825,0x42
"bidirectionalExtensionBoard","data",3.36978375,0.00395825,0x00
"bidirectionalExtensionBoard","data",3.3739555,0.00395825,0xEF
"bidirectionalExtensionBoard","data",4.120526,0.00395825,0xAA
"bidirectionalExtensionBoard","data",4.1246925,0.00395825,0xBC
"bidirectionalExtensionBoard","data",4.128858,0.00395825,0x22
"bidirectionalExtensionBoard","data",4.13302425,0.00395825,0xAC
"bidirectionalExtensionBoard","data",4.13719025,0.00395825,0x00
"bidirectionalExtensionBoard","data",4.141357,0.00395825,0x00
"bidirectionalExtensionBoard","data",4.14552275,0.00395825,0x00
"bidirectionalExtensionBoard","data",4.14968925,0.00395825,0x00
"bidirectionalExtensionBoard","data",4.1538555,0.00395825,0x00
"bidirectionalExtensionBoard","data",4.15802175,0.00395825,0x03
"bidirectionalExtensionBoard","data",4.162188,0.00395825,0x03
"bidirectionalExtensionBoard","data",4.16635425,0.00395825,0x41
"bidirectionalExtensionBoard","data",4.1705205,0.00395825,0x81
"bidirectionalExtensionBoard","data",4.17468675,0.00395825,0x01
"bidirectionalExtensionBoard","data",4.178853,0.00395825,0x42
"bidirectionalExtensionBoard","data",4.18301925,0.00395825,0x00
"bidirectionalExtensionBoard","data",4.18719725,0.00395825,0x00
"bidirectionalExtensionBoard","data",4.19136325,0.00395825,0x00
"bidirectionalExtensionBoard","data",4.19552975,0.00395825,0x00
"bidirectionalExtensionBoard","data",4.19969575,0.00395825,0x00
"bidirectionalExtensionBoard","data",4.20386175,0.00395825,0x00
"bidirectionalExtensionBoard","data",4.208028,0.00395825,0x00
"bidirectionalExtensionBoard","data",4.212194,0.00395825,0x00
"bidirectionalExtensionBoard","data",4.2163605,0.00395825,0x00
"bidirectionalExtensionBoard","data",4.2205265,0.00395825,0x00
"bidirectionalExtensionBoard","data",4.22469275,0.00395825,0x00
"bidirectionalExtensionBoard","data",4.22885875,0.00395825,0x00
"bidirectionalExtensionBoard","data",4.233025,0.00395825,0x00
"bidirectionalExtensionBoard","data",4.237191,0.00395825,0x00
"bidirectionalExtensionBoard","data",4.2413575,0.00395825,0x00
"bidirectionalExtensionBoard","data",4.24552375,0.00395825,0x00
"bidirectionalExtensionBoard","data",4.24968925,0.00395825,0x00
"bidirectionalExtensionBoard","data",4.25385525,0.00395825,0x00
"bidirectionalExtensionBoard","data",4.258022,0.00395825,0x86
"bidirectionalExtensionBoard","data",4.26218775,0.00395825,0xDB
"bidirectionalExtensionBoard","data",4.2663545,0.00395825,0xE5
"bidirectionalExtensionBoard","data",4.270521,0.00395825,0x00
"bidirectionalExtensionBoard","data",4.2746875,0.00395825,0x7B
"bidirectionalExtensionBoard","data",4.317341,0.00395825,0x55
"bidirectionalExtensionBoard","data",4.3215125,0.00395825,0xBC
"bidirectionalExtensionBoard","data",4.32568425,0.00395825,0x22
"bidirectionalExtensionBoard","data",4.32985575,0.00395825,0xAC
"bidirectionalExtensionBoard","data",4.33403125,0.00395825,0x00
"bidirectionalExtensionBoard","data",4.33820325,0.00395825,0x00
"bidirectionalExtensionBoard","data",4.34237475,0.00395825,0x00
"bidirectionalExtensionBoard","data",4.34654675,0.00395825,0x00
"bidirectionalExtensionBoard","data",4.350718,0.00395825,0x00
"bidirectionalExtensionBoard","data",4.35488975,0.00395825,0x03
"bidirectionalExtensionBoard","data",4.35906125,0.00395825,0x03
"bidirectionalExtensionBoard","data",4.36323275,0.00395825,0xC1
"bidirectionalExtensionBoard","data",4.3674045,0.00395825,0x21
"bidirectionalExtensionBoard","data",4.371576,0.00395825,0x01
"bidirectionalExtensionBoard","data",4.375748,0.00395825,0x42
"bidirectionalExtensionBoard","data",4.37991975,0.00395825,0x7F
"bidirectionalExtensionBoard","data",4.38409125,0.00395825,0x7F
"bidirectionalExtensionBoard","data",4.388263,0.00395825,0x00
