name,type,start_time,duration,"data","error"
"mainboardBlue","data",0.000512,0.0009895,0x16,"framing"
"mainboardBlue","data",0.001935,0.0009895,0x00,
"mainboardBlue","data",0.0029845,0.0009895,0x00,
"mainboardBlue","data",0.00403575,0.0009895,0x00,
"mainboardBlue","data",0.0050855,0.0009895,0x00,
"mainboardBlue","data",0.00613525,0.0009895,0x00,
"mainboardBlue","data",0.007185,0.0009895,0x00,
"mainboardBlue","data",0.00823475,0.0009895,0x08,
"mainboardBlue","data",0.00929425,0.0009895,0x61,
"mainboardBlue","data",0.010344,0.0009895,0x1B,
"mainboardBlue","data",0.01139375,0.0009895,0x72,
"mainboardBlue","data",0.01244325,0.0009895,0xBB,
"mainboardBlue","data",0.013493,0.0009895,0xB3,
"mainboardBlue","data",0.0145425,0.0009895,0x00,
"mainboardBlue","data",0.0155925,0.0009895,0x01,
"mainboardBlue","data",0.016642,0.0009895,0x0C,
"mainboardBlue","data",0.01769175,0.0009895,0x9B,
"mainboardBlue","data",0.0187415,0.0009895,0x00,
"mainboardBlue","data",0.019791,0.0009895,0x3D,
"mainboardBlue","data",0.02084075,0.0009895,0x22,
"mainboardBlue","data",0.02189025,0.0009895,0x00,
"mainboardBlue","data",0.02294,0.0009895,0x00,
"mainboardBlue","data",0.02398975,0.0009895,0x00,
"mainboardBlue","data",0.0250395,0.0009895,0x00,
"mainboardBlue","data",0.02608925,0.0009895,0x00,
"mainboardBlue","data",0.02713875,0.0009895,0x00,
"mainboardBlue","data",0.02818875,0.0009895,0x00,
"mainboardBlue","data",0.02925025,0.0009895,0x00,
"mainboardBlue","data",0.0303,0.0009895,0x00,
"mainboardBlue","data",0.03134975,0.0009895,0x00,
"mainboardBlue","data",0.0323995,0.0009895,0x00,
"mainboardBlue","data",0.033449,0.0009895,0x00,
"mainboardBlue","data",0.034499,0.0009895,0x00,
"mainboardBlue","data",0.03554875,0.0009895,0x00,
"mainboardBlue","data",0.03659825,0.0009895,0x00,
"mainboardBlue","data",0.03764775,0.0009895,0x8C,
"mainboardBlue","data",0.0386975,0.0009895,0x8A,
"mainboardGrey","data",0.07117225,0.0009895,0xAA,
"mainboardGrey","data",0.07222275,0.0009895,0x20,
"mainboardGrey","data",0.07327375,0.0009895,0x24,
"mainboardGrey","data",0.07432425,0.0009895,0x03,
"mainboardGrey","data",0.0753745,0.0009895,0x4C,
"mainboardGrey","data",0.07642475,0.0009895,0x66,
"mainboardGrey","data",0.07747525,0.0009895,0x00,
"mainboardGrey","data",0.07852575,0.0009895,0x00,
"mainboardGrey","data",0.07957625,0.0009895,0x00,
"mainboardGrey","data",0.0806265,0.0009895,0x40,
"mainboardGrey","data",0.081677,0.0009895,0x00,
"mainboardGrey","data",0.0827275,0.0009895,0x00,
"mainboardGrey","data",0.083778,0.0009895,0x00,
"mainboardGrey","data",0.0848285,0.0009895,0x00,
"mainboardGrey","data",0.08587875,0.0009895,0x00,
"mainboardGrey","data",0.08692975,0.0009895,0x00,
"mainboardGrey","data",0.08798025,0.0009895,0x80,
"mainboardGrey","data",0.089031,0.0009895,0x00,
"mainboardGrey","data",0.0900815,0.0009895,0xFF,
"mainboardGrey","data",0.09113225,0.0009895,0xFF,
"mainboardGrey","data",0.0921825,0.0009895,0x00,
"mainboardGrey","data",0.093233,0.0009895,0x00,
"mainboardGrey","data",0.09428325,0.0009895,0x00,
"mainboardGrey","data",0.09533375,0.0009895,0x00,
"mainboardGrey","data",0.09638425,0.0009895,0x00,
"mainboardGrey","data",0.09743475,0.0009895,0x00,
"mainboardGrey","data",0.09848525,0.0009895,0x00,
"mainboardGrey","data",0.09953625,0.0009895,0x00,
"mainboardGrey","data",0.100587,0.0009895,0x00,
"mainboardGrey","data",0.1016375,0.0009895,0x00,
"mainboardGrey","data",0.102688,0.0009895,0x00,
"mainboardGrey","data",0.10373825,0.0009895,0x00,
"mainboardGrey","data",0.10478875,0.0009895,0x00,
"mainboardGrey","data",0.10583925,0.0009895,0x00,
"mainboardGrey","data",0.10688975,0.0009895,0xBB,
"mainboardGrey","data",0.10794,0.0009895,0x8E,
"mainboardBlue","data",0.1291335,0.0009895,0xAA,
"mainboardBlue","data",0.130183,0.0009895,0x20,
"mainboardBlue","data",0.13123275,0.0009895,0x1D,
"mainboardBlue","data",0.1322825,0.0009895,0x03,
"mainboardBlue","data",0.133332,0.0009895,0x00,
"mainboardBlue","data",0.13438175,0.0009895,0x64,
"mainboardBlue","data",0.1354315,0.0009895,0x00,
"mainboardBlue","data",0.13648175,0.0009895,0x00,
"mainboardBlue","data",0.1375315,0.0009895,0x00,
"mainboardBlue","data",0.13858125,0.0009895,0x00,
"mainboardBlue","data",0.139631,0.0009895,0x00,
"mainboardBlue","data",0.14068075,0.0009895,0x00,
"mainboardBlue","data",0.1417305,0.0009895,0x00,
"mainboardBlue","data",0.14278,0.0009895,0x01,
"mainboardBlue","data",0.1438295,0.0009895,0x00,
"mainboardBlue","data",0.144879,0.0009895,0x00,
"mainboardBlue","data",0.14593275,0.0009895,0x00,
"mainboardBlue","data",0.14699225,0.0009895,0x00,
"mainboardBlue","data",0.148042,0.0009895,0x00,
"mainboardBlue","data",0.14909175,0.0009895,0xFF,
"mainboardBlue","data",0.1501415,0.0009895,0x00,
"mainboardBlue","data",0.15119125,0.0009895,0x00,
"mainboardBlue","data",0.152241,0.0009895,0x00,
"mainboardBlue","data",0.15329075,0.0009895,0x00,
"mainboardBlue","data",0.15434,0.0009895,0x00,
"mainboardBlue","data",0.1553895,0.0009895,0x00,
"mainboardBlue","data",0.15643925,0.0009895,0x00,
"mainboardBlue","data",0.157489,0.0009895,0xDC,
"mainboardBlue","data",0.1585385,0.0009895,0x80,
"mainboardGrey","data",0.19114375,0.0009895,0xAA,
"mainboardGrey","data",0.19219425,0.0009895,0x31,
"mainboardGrey","data",0.19324475,0.0009895,0x20,
"mainboardGrey","data",0.194295,0.0009895,0x00,
"mainboardGrey","data",0.1953455,0.0009895,0x00,
"mainboardGrey","data",0.196396,0.0009895,0x00,
"mainboardGrey","data",0.1974465,0.0009895,0x00,
"mainboardGrey","data",0.198497,0.0009895,0x00,
"mainboardGrey","data",0.19954775,0.0009895,0x00,
"mainboardGrey","data",0.200598,0.0009895,0x00,
"mainboardGrey","data",0.20164925,0.0009895,0x00,
"mainboardGrey","data",0.20269975,0.0009895,0x00,
"mainboardGrey","data",0.20375025,0.0009895,0x00,
"mainboardGrey","data",0.20480075,0.0009895,0x00,
"mainboardGrey","data",0.20585175,0.0009895,0x00,
"mainboardGrey","data",0.20690275,0.0009895,0x00,
"mainboardGrey","data",0.207953,0.0009895,0x00,
"mainboardGrey","data",0.2090035,0.0009895,0x00,
"mainboardGrey","data",0.21005475,0.0009895,0x00,
"mainboardGrey","data",0.21110525,0.0009895,0x00,
"mainboardGrey","data",0.21215625,0.0009895,0x00,
"mainboardGrey","data",0.21320675,0.0009895,0x00,
"mainboardGrey","data",0.214257,0.0009895,0x00,
"mainboardGrey","data",0.21530775,0.0009895,0x00,
"mainboardGrey","data",0.21635825,0.0009895,0x00,
"mainboardGrey","data",0.21740875,0.0009895,0x00,
"mainboardGrey","data",0.21845925,0.0009895,0x00,
"mainboardGrey","data",0.21950975,0.0009895,0x00,
"mainboardGrey","data",0.22056075,0.0009895,0x00,
"mainboardGrey","data",0.22161125,0.0009895,0x00,
"mainboardGrey","data",0.222662,0.0009895,0x4B,
"mainboardGrey","data",0.22371275,0.0009895,0x64,
"mainboardBlue","data",0.24485825,0.0009895,0xAA,
"mainboardBlue","data",0.245908,0.0009895,0x31,
"mainboardBlue","data",0.2469585,0.0009895,0x40,
"mainboardBlue","data",0.24801125,0.0009895,0x00,
"mainboardBlue","data",0.249061,0.0009895,0x4C,
"mainboardBlue","data",0.25011075,0.0009895,0x2E,
"mainboardBlue","data",0.2511605,0.0009895,0x1B,
"mainboardBlue","data",0.25221025,0.0009895,0x61,
"mainboardBlue","data",0.25325975,0.0009895,0x1B,
"mainboardBlue","data",0.2543095,0.0009895,0x00,
"mainboardBlue","data",0.25535925,0.0009895,0x00,
"mainboardBlue","data",0.25641,0.0009895,0x00,
"mainboardBlue","data",0.2574595,0.0009895,0x3B,
"mainboardBlue","data",0.25850925,0.0009895,0x36,
"mainboardBlue","data",0.259559,0.0009895,0x07,
"mainboardBlue","data",0.26060875,0.0009895,0x00,
"mainboardBlue","data",0.2616585,0.0009895,0xB7,
"mainboardBlue","data",0.262708,0.0009895,0x88,
"mainboardBlue","data",0.26375775,0.0009895,0x33,
"mainboardBlue","data",0.2648075,0.0009895,0xB1,
"mainboardBlue","data",0.26586125,0.0009895,0x1E,
"mainboardBlue","data",0.266911,0.0009895,0x00,
"mainboardBlue","data",0.26796775,0.0009895,0x0E,
"mainboardBlue","data",0.2690175,0.0009895,0x17,
"mainboardBlue","data",0.27006725,0.0009895,0xFE,
"mainboardBlue","data",0.271117,0.0009895,0x05,
"mainboardBlue","data",0.2721665,0.0009895,0x04,
"mainboardBlue","data",0.27321625,0.0009895,0x08,
"mainboardBlue","data",0.274266,0.0009895,0x03,
"mainboardBlue","data",0.27531575,0.0009895,0x00,
"mainboardBlue","data",0.27636525,0.0009895,0x00,
"mainboardBlue","data",0.277415,0.0009895,0x00,
"mainboardBlue","data",0.27846475,0.0009895,0x00,
"mainboardBlue","data",0.27951425,0.0009895,0x00,
"mainboardBlue","data",0.280564,0.0009895,0xF9,
"mainboardBlue","data",0.2816135,0.0009895,0x0A,
"mainboardBlue","data",0.28266325,0.0009895,0x01,
"mainboardBlue","data",0.283713,0.0009895,0x06,
"mainboardBlue","data",0.2847635,0.0009895,0x00,
"mainboardBlue","data",0.28581325,0.0009895,0xF8,
"mainboardBlue","data",0.286863,0.0009895,0x05,
"mainboardBlue","data",0.28791275,0.0009895,0x64,
"mainboardBlue","data",0.2889625,0.0009895,0x00,
"mainboardBlue","data",0.290012,0.0009895,0x64,
"mainboardBlue","data",0.2910615,0.0009895,0x00,
"mainboardBlue","data",0.2921115,0.0009895,0x48,
"mainboardBlue","data",0.29316225,0.0009895,0x64,
"mainboardBlue","data",0.294215,0.0009895,0x00,
"mainboardBlue","data",0.2952645,0.0009895,0xF0,
"mainboardBlue","data",0.29631425,0.0009895,0x51,
"mainboardBlue","data",0.297364,0.0009895,0x64,
"mainboardBlue","data",0.29841375,0.0009895,0x00,
"mainboardBlue","data",0.2994635,0.0009895,0x00,
"mainboardBlue","data",0.300513,0.0009895,0x00,
"mainboardBlue","data",0.30156275,0.0009895,0x00,
"mainboardBlue","data",0.30261275,0.0009895,0x00,
"mainboardBlue","data",0.30366625,0.0009895,0x00,
"mainboardBlue","data",0.304716,0.0009895,0x00,
"mainboardBlue","data",0.30576575,0.0009895,0x00,
"mainboardBlue","data",0.30681525,0.0009895,0x00,
"mainboardBlue","data",0.30786475,0.0009895,0x00,
"mainboardBlue","data",0.3089145,0.0009895,0x00,
"mainboardBlue","data",0.309964,0.0009895,0xD3,
"mainboardBlue","data",0.31101375,0.0009895,0x9B,
"mainboardGrey","data",0.351351,0.0009895,0xAA,
"mainboardGrey","data",0.35240125,0.0009895,0x20,
"mainboardGrey","data",0.35345175,0.0009895,0x24,
"bidirectionalExtensionBoard","data",0.354098,0.00395825,0xAA,
"mainboardGrey","data",0.3545025,0.0009895,0x03,
"mainboardGrey","data",0.3555535,0.0009895,0x4C,
"mainboardGrey","data",0.35660425,0.0009895,0x66,
"mainboardGrey","data",0.35765475,0.0009895,0x00,
"bidirectionalExtensionBoard","data",0.35826575,0.00395825,0xBC,
"mainboardGrey","data",0.358705,0.0009895,0x00,
"mainboardGrey","data",0.3597555,0.0009895,0x00,
"mainboardGrey","data",0.360806,0.0009895,0x40,
"mainboardGrey","data",0.3618565,0.0009895,0x00,
"bidirectionalExtensionBoard","data",0.36243375,0.00395825,0x22,
"mainboardGrey","data",0.3629075,0.0009895,0x00,
"mainboardGrey","data",0.363958,0.0009895,0x00,
"mainboardGrey","data",0.36500875,0.0009895,0x00,
"mainboardGrey","data",0.36605925,0.0009895,0x00,
"bidirectionalExtensionBoard","data",0.36660125,0.00395825,0xAC,
"mainboardGrey","data",0.36710975,0.0009895,0x00,
"mainboardGrey","data",0.36816075,0.0009895,0x80,
"mainboardGrey","data",0.369211,0.0009895,0x00,
"mainboardGrey","data",0.3702615,0.0009895,0xFF,
"bidirectionalExtensionBoard","data",0.37076875,0.00395825,0x00,
"mainboardGrey","data",0.371312,0.0009895,0xFF,
"mainboardGrey","data",0.37236275,0.0009895,0x00,
"mainboardGrey","data",0.37341325,0.0009895,0x00,
"mainboardGrey","data",0.37446425,0.0009895,0x00,
"bidirectionalExtensionBoard","data",0.37493625,0.00395825,0x00,
"mainboardGrey","data",0.37551475,0.0009895,0x00,
"mainboardGrey","data",0.37656525,0.0009895,0x00,
"mainboardGrey","data",0.37761575,0.0009895,0x00,
"mainboardGrey","data",0.37866625,0.0009895,0x00,
"bidirectionalExtensionBoard","data",0.379104,0.00395825,0x00,
"mainboardGrey","data",0.37971675,0.0009895,0x00,
"mainboardGrey","data",0.38076775,0.0009895,0x00,
"mainboardGrey","data",0.38181875,0.0009895,0x00,
"mainboardGrey","data",0.38286925,0.0009895,0x00,
"bidirectionalExtensionBoard","data",0.3832715,0.00395825,0x00,
"mainboardGrey","data",0.38392025,0.0009895,0x00,
"mainboardGrey","data",0.38497075,0.0009895,0x00,
"mainboardGrey","data",0.38602125,0.0009895,0x00,
"mainboardGrey","data",0.38707175,0.0009895,0xBB,
"bidirectionalExtensionBoard","data",0.387439,0.00395825,0x00,
"mainboardGrey","data",0.388122,0.0009895,0x8E,
"bidirectionalExtensionBoard","data",0.39160675,0.00395825,0x03,
"bidirectionalExtensionBoard","data",0.3957745,0.00395825,0x03,
"bidirectionalExtensionBoard","data",0.399942,0.00395825,0x41,
"bidirectionalExtensionBoard","data",0.4041095,0.00395825,0x81,
"bidirectionalExtensionBoard","data",0.4082775,0.00395825,0x01,
"mainboardBlue","data",0.40895125,0.0009895,0xAA,
"mainboardBlue","data",0.410001,0.0009895,0x20,
"mainboardBlue","data",0.41105075,0.0009895,0x1D,
"mainboardBlue","data",0.41210125,0.0009895,0x03,
"bidirectionalExtensionBoard","data",0.41244525,0.00395825,0x43,
"mainboardBlue","data",0.41315025,0.0009895,0x00,
"mainboardBlue","data",0.4142,0.0009895,0x64,
"mainboardBlue","data",0.41524975,0.0009895,0x00,
"mainboardBlue","data",0.4162995,0.0009895,0x00,
"bidirectionalExtensionBoard","data",0.416613,0.00395825,0x00,
"mainboardBlue","data",0.41734925,0.0009895,0x00,
"mainboardBlue","data",0.41839825,0.0009895,0x00,
"mainboardBlue","data",0.419448,0.0009895,0x00,
"mainboardBlue","data",0.42049775,0.0009895,0x00,
"bidirectionalExtensionBoard","data",0.420781,0.00395825,0x00,
"mainboardBlue","data",0.42154725,0.0009895,0x00,
"mainboardBlue","data",0.42259675,0.0009895,0x01,
"mainboardBlue","data",0.4236465,0.0009895,0x00,
"mainboardBlue","data",0.42469625,0.0009895,0x00,
"bidirectionalExtensionBoard","data",0.424949,0.00395825,0x00,
"mainboardBlue","data",0.42574625,0.0009895,0x00,
"mainboardBlue","data",0.426796,0.0009895,0x00,
"mainboardBlue","data",0.42784575,0.0009895,0x00,
"mainboardBlue","data",0.4288955,0.0009895,0xFF,
"bidirectionalExtensionBoard","data",0.429117,0.00395825,0x00,
"mainboardBlue","data",0.42994525,0.0009895,0x00,
"mainboardBlue","data",0.430995,0.0009895,0x00,
"mainboardBlue","data",0.43204475,0.0009895,0x00,
"mainboardBlue","data",0.43309425,0.0009895,0x00,
"bidirectionalExtensionBoard","data",0.4332845,0.00395825,0x00,
"mainboardBlue","data",0.43414425,0.0009895,0x00,
"mainboardBlue","data",0.43519375,0.0009895,0x00,
"mainboardBlue","data",0.43624375,0.0009895,0x00,
"mainboardBlue","data",0.43729325,0.0009895,0xDC,
"bidirectionalExtensionBoard","data",0.4374625,0.00395825,0x00,
"mainboardBlue","data",0.4383545,0.0009895,0x80,
"bidirectionalExtensionBoard","data",0.44162975,0.00395825,0x00,
"bidirectionalExtensionBoard","data",0.44579975,0.00395825,0x00,
"bidirectionalExtensionBoard","data",0.4499675,0.00395825,0x00,
"bidirectionalExtensionBoard","data",0.45413525,0.00395825,0x00,
"bidirectionalExtensionBoard","data",0.458303,0.00395825,0x00,
"bidirectionalExtensionBoard","data",0.46247075,0.00395825,0x00,
"bidirectionalExtensionBoard","data",0.46663875,0.00395825,0x00,
"mainboardGrey","data",0.4707655,0.0009895,0xAA,
"bidirectionalExtensionBoard","data",0.47080625,0.00395825,0x00,
"mainboardGrey","data",0.47181625,0.0009895,0x30,
"mainboardGrey","data",0.47286675,0.0009895,0x0A,
"mainboardGrey","data",0.473917,0.0009895,0x01,
"mainboardGrey","data",0.4749675,0.0009895,0xFF,
"bidirectionalExtensionBoard","data",0.47497425,0.00395825,0x00,
"mainboardGrey","data",0.476018,0.0009895,0x03,
"mainboardGrey","data",0.47706825,0.0009895,0x00,
"mainboardGrey","data",0.47811925,0.0009895,0x42,
"bidirectionalExtensionBoard","data",0.479142,0.00395825,0x00,
"mainboardGrey","data",0.4791695,0.0009895,0x75,
"mainboardGrey","data",0.4802205,0.0009895,0x0C,
"bidirectionalExtensionBoard","data",0.48330975,0.00395825,0x00,
"bidirectionalExtensionBoard","data",0.48747775,0.00395825,0x00,
"bidirectionalExtensionBoard","data",0.4916445,0.00395825,0x6F,
"bidirectionalExtensionBoard","data",0.495812,0.00395825,0x65,
"bidirectionalExtensionBoard","data",0.49997975,0.00395825,0xFB,
"mainboardBlue","data",0.50093875,0.0009895,0xAA,
"mainboardBlue","data",0.5019885,0.0009895,0x30,
"mainboardBlue","data",0.503038,0.0009895,0x40,
"mainboardBlue","data",0.50408775,0.0009895,0x08,
"bidirectionalExtensionBoard","data",0.504147,0.00395825,0x00,
"mainboardBlue","data",0.5051375,0.0009895,0x07,
"mainboardBlue","data",0.506205,0.0009895,0x36,
"mainboardBlue","data",0.50725375,0.0009895,0x10,
"mainboardBlue","data",0.5083035,0.0009895,0xC8,
"bidirectionalExtensionBoard","data",0.5083145,0.00395825,0xF1,
"mainboardBlue","data",0.509353,0.0009895,0x00,
"mainboardBlue","data",0.51040275,0.0009895,0xCC,
"mainboardBlue","data",0.5114525,0.0009895,0x01,
"mainboardBlue","data",0.512502,0.0009895,0x7D,
"mainboardBlue","data",0.51355175,0.0009895,0x50,
"mainboardBlue","data",0.5146015,0.0009895,0x5A,
"mainboardBlue","data",0.51565125,0.0009895,0x00,
"mainboardBlue","data",0.51670425,0.0009895,0x07,
"mainboardBlue","data",0.517754,0.0009895,0xA0,
"mainboardBlue","data",0.5188035,0.0009895,0x03,
"mainboardBlue","data",0.519853,0.0009895,0x89,
"mainboardBlue","data",0.520903,0.0009895,0x8A,
"mainboardBlue","data",0.52195275,0.0009895,0x00,
"mainboardBlue","data",0.52300225,0.0009895,0x00,
"mainboardBlue","data",0.524052,0.0009895,0x00,
"mainboardBlue","data",0.52510175,0.0009895,0x00,
"mainboardBlue","data",0.52616125,0.0009895,0x00,
"mainboardBlue","data",0.52721075,0.0009895,0x00,
"mainboardBlue","data",0.5282605,0.0009895,0x40,
"mainboardBlue","data",0.52931025,0.0009895,0x01,
"mainboardBlue","data",0.53035975,0.0009895,0x00,
"mainboardBlue","data",0.5314095,0.0009895,0x00,
"mainboardBlue","data",0.53245925,0.0009895,0x00,
"mainboardBlue","data",0.533509,0.0009895,0x00,
"mainboardBlue","data",0.5345585,0.0009895,0x00,
"mainboardBlue","data",0.53560825,0.0009895,0x00,
"mainboardBlue","data",0.53665775,0.0009895,0x08,
"mainboardBlue","data",0.53770775,0.0009895,0x61,
"mainboardBlue","data",0.5387575,0.0009895,0x1B,
"mainboardBlue","data",0.539807,0.0009895,0x72,
"mainboardBlue","data",0.54085675,0.0009895,0xBB,
"mainboardBlue","data",0.5419065,0.0009895,0xB3,
"mainboardBlue","data",0.54295625,0.0009895,0x00,
"mainboardBlue","data",0.544006,0.0009895,0x01,
"mainboardBlue","data",0.54505775,0.0009895,0x0C,
"mainboardBlue","data",0.54611725,0.0009895,0x9B,
"mainboardBlue","data",0.547167,0.0009895,0x00,
"mainboardBlue","data",0.54821675,0.0009895,0x3D,
"mainboardBlue","data",0.54926625,0.0009895,0x22,
"mainboardBlue","data",0.550316,0.0009895,0x00,
"mainboardBlue","data",0.55137325,0.0009895,0x00,
"mainboardBlue","data",0.55242275,0.0009895,0x00,
"bidirectionalExtensionBoard","data",0.55251225,0.00395825,0x55,
"mainboardBlue","data",0.5534725,0.0009895,0x00,
"mainboardBlue","data",0.55452225,0.0009895,0x00,
"mainboardBlue","data",0.55557175,0.0009895,0x00,
"mainboardBlue","data",0.5566215,0.0009895,0x00,
"bidirectionalExtensionBoard","data",0.556684,0.00395825,0xBC,
"mainboardBlue","data",0.55767125,0.0009895,0x00,
"mainboardBlue","data",0.55872375,0.0009895,0x00,
"mainboardBlue","data",0.55977325,0.0009895,0x00,
"mainboardBlue","data",0.56082575,0.0009895,0x00,
"bidirectionalExtensionBoard","data",0.56085625,0.00395825,0x22,
"mainboardBlue","data",0.5618755,0.0009895,0x00,
"mainboardBlue","data",0.56292525,0.0009895,0x00,
"mainboardBlue","data",0.563975,0.0009895,0x00,
"mainboardBlue","data",0.5650245,0.0009895,0x00,
"bidirectionalExtensionBoard","data",0.56502825,0.00395825,0xAC,
"mainboardBlue","data",0.56607425,0.0009895,0x8C,
"mainboardBlue","data",0.56712375,0.0009895,0x8A,
"bidirectionalExtensionBoard","data",0.5692,0.00395825,0x00,
"bidirectionalExtensionBoard","data",0.57337225,0.00395825,0x00,
"bidirectionalExtensionBoard","data",0.57754425,0.00395825,0x00,
"bidirectionalExtensionBoard","data",0.581716,0.00395825,0x00,
"bidirectionalExtensionBoard","data",0.58588775,0.00395825,0x00,
"bidirectionalExtensionBoard","data",0.5900615,0.00395825,0x03,
"bidirectionalExtensionBoard","data",0.594233,0.00395825,0x03,
"bidirectionalExtensionBoard","data",0.598405,0.00395825,0xC1,
"mainboardGrey","data",0.601344,0.0009895,0xAA,
"mainboardGrey","data",0.6023945,0.0009895,0x20,
